! 3/24/2021 11:01:35 AM, file used: 20210120_TX1550_0dBm_deembed_OFF.chx
! Z:\PRODUCTIONTESTRESULTS\RXANDRXM\VNA TEMP\VNA_TEMP_1_2489361658.S2P
! CHANNEL.1
! TR.MEASUREMENT
! CORRECTED.DATA
# GHZ S DB R 50.0
! FREQ.GHZ         S11DB            S11A          S21DB            S21A          S12DB            S12A          S22DB            S22A          
!; PortSelection: Port_12
   0.035000000    17.1270700  -72.1050600    17.1452700  102.7542000  -118.5685000  143.3950000   -17.1336000    1.3793470 
   0.070000000    17.0735800   35.2679000    17.2954600   25.2779500  -112.7755000  132.5181000   -17.3500200   -0.3501812 
   0.105000000    17.1207500  142.7751000    17.3158800  -52.2830800  -103.3069000  146.2486000   -16.6068300   -7.3599410 
   0.140000000    17.7018100 -112.7937000    17.3904100 -129.9072000  -103.0650000 -134.5674000   -17.3198600  -14.2125300 
   0.175000000    18.1765300   -7.7554670    17.4036100  152.8813000  -112.7039000  -22.4729800   -17.5273100  -17.9565800 
   0.210000000    18.9060600  100.4895000    17.4722300   75.3148200   -99.3340300   19.8194800   -17.3807600  -22.2846500 
   0.245000000    18.8904700 -152.2410000    17.4457500   -1.9620470  -108.1544000  -65.2159700   -17.0327000  -25.1189100 
   0.280000000    18.7752600  -45.9748000    17.4894800  -79.2622500  -111.3798000   38.6608500   -16.9734000  -26.3797600 
   0.315000000    19.2148200   57.6233500    17.4618100 -156.7693000  -103.8931000   71.8074300   -17.2873600  -29.2438000 
   0.350000000    19.4674400  166.5500000    17.4944400  126.1711000  -102.5878000  128.2711000   -17.4218600  -34.8254400 
   0.385000000    19.5387900  -85.7800700    17.4368400   48.9954500  -121.7439000   -1.4995540   -17.0212200  -39.2493300 
   0.420000000    19.0699000   19.0930500    17.3914100  -28.0633400   -99.9501200   79.6377400   -16.6857400  -39.9380300 
   0.455000000    19.2409500  121.5601000    17.4489400 -105.2718000  -101.7154000  133.1817000   -16.9546500  -40.3162300 
   0.490000000    20.0518800 -134.1574000    17.4178300  177.4729000  -101.2026000  123.2948000   -17.5079200  -44.5674900 
   0.525000000    20.5172200  -27.9279800    17.2969100  100.4520000  -121.0723000  -92.9747500   -17.6123500  -50.9125900 
   0.560000000    20.7133300   78.5488200    17.3644500   23.3635100   -95.5499200    9.2883250   -17.3578900  -54.9209200 
   0.595000000    20.7461100 -175.4185000    17.3624800  -53.9024000   -98.2980700  -77.7486600   -17.3198000  -57.1675800 
   0.630000000    20.6469900  -68.9557000    17.2393600 -130.5417000   -93.3721000   64.5901400   -17.4757700  -60.0077000 
   0.665000000    21.0422500   34.7996500    17.3077200  152.2229000   -94.3530900   45.4969400   -17.6243400  -64.1706600 
   0.700000000    21.3238000  141.3282000    17.2516000   74.9874000  -121.6570000   54.1850000   -17.4925800  -68.7852900 
   0.735000000    21.2436200 -110.6165000    17.2717500   -1.8849460  -103.4770000   29.5033100   -17.2020900  -70.6966200 
   0.770000000    20.7311300   -8.6691160    17.1979900  -79.2383300  -100.0885000  167.8762000   -17.4021000  -70.9252300 
   0.805000000    21.0350800   90.5020100    17.2032900 -156.6031000   -96.6339400 -147.5828000   -18.0051700  -75.3153200 
   0.840000000    22.0962800 -164.7797000    17.2760100  126.2570000   -95.2966200  106.4210000   -18.0432300  -83.5242600 
   0.875000000    22.4617200  -56.7569600    17.2001200   49.0232300   -96.6435300  160.2885000   -17.3689800  -88.5031000 
   0.910000000    22.2925600   49.6896500    17.3017100  -28.0947500   -95.7551300 -132.6831000   -16.9881300  -88.2219700 
   0.945000000    22.1107100  152.0051000    17.2691100 -105.4982000  -103.1896000  -70.4622200   -17.3953700  -88.3096700 
   0.980000000    22.5695800 -105.6584000    17.2811100  177.6712000   -99.9218600 -123.2337000   -17.9911200  -93.7050400 
   1.015000000    23.0356100    0.0348948    17.2888900  100.3040000  -104.9705000 -155.9297000   -17.7587000 -101.4657000 
   1.050000000    22.9937400  107.2040000    17.3342800   23.0009000  -110.8020000  -54.1198400   -17.0065700 -104.2195000 
   1.085000000    22.3596000 -148.6760000    17.2750100  -54.2503500  -103.8721000  -21.4327700   -16.7495500 -102.4196000 
   1.120000000    22.3142900  -49.4481700    17.2966900 -131.2627000   -99.6956200 -175.0568000   -17.4463600 -101.7670000 
   1.155000000    23.1104900   51.2339600    17.2479900  151.3096000  -106.8266000   58.3484800   -18.3054000 -107.3143000 
   1.190000000    23.8454900  158.8223000    17.2629100   74.2195900  -102.9363000  -63.3660200   -18.2108700 -116.4497000 
   1.225000000    23.7194200  -90.7585100    17.2010000   -2.6427850  -112.1370000   52.8391800   -17.4580200 -119.8009000 
   1.260000000    22.8350600   14.5584700    17.2390400  -79.6769000   -96.7825200  -88.6663900   -17.3579400 -118.5861000 
   1.295000000    22.3826800  113.7424000    17.2076000 -156.7495000  -104.3275000    1.1859210   -18.0428100 -119.4494000 
   1.330000000    23.1106400 -145.4002000    17.2347300  125.4421000  -107.8853000  108.8096000   -18.5787400 -126.8603000 
   1.365000000    23.5649000  -38.1815600    17.2611400   48.3063900  -107.6161000   -9.4171720   -18.0896800 -133.5559000 
   1.400000000    22.9406100   68.2867300    17.2903800  -29.0474400   -99.7684300 -115.6202000   -17.6623600 -133.3360000 
   1.435000000    22.0511400  171.4145000    17.2156900 -106.1865000   -99.2386300 -159.3113000   -18.2516300 -132.0734000 
   1.470000000    22.5318600  -89.0013600    17.2496100  176.2499000   -99.8866000  127.7432000   -19.3881600 -138.6660000 
   1.505000000    23.2375700   16.9912300    17.1922600   98.5502700   -98.5628200  -15.5220400   -19.1759100 -150.0444000 
   1.540000000    23.0451200  126.8369000    17.1705300   21.2778900  -108.7421000  120.7879000   -18.2347500 -152.7947000 
   1.575000000    22.1117800 -127.5701000    17.2057800  -56.0223400  -101.6231000  -50.1447800   -18.3426800 -150.0560000 
   1.610000000    21.6458100  -28.5463100    17.1723800 -133.5830000   -97.1823900   31.6658700   -19.5070900 -152.8305000 
   1.645000000    22.1589600   74.0452200    17.1451100  148.9083000  -111.3950000  152.0326000   -19.8331700 -164.7203000 
   1.680000000    22.2520600 -177.0582000    17.1201900   71.7495700   -99.6712000   -3.4639590   -18.7960100 -170.8219000 
   1.715000000    21.4616800  -69.7802400    17.1162500   -5.3155860  -107.5288000 -150.4091000   -18.4090500 -168.7594000 
   1.750000000    20.9020700   30.7754700    17.1204400  -82.4248400   -98.2881600  -61.7319800   -19.2594800 -169.6323000 
   1.785000000    21.5203700  133.0865000    17.1101000 -159.7220000   -98.1513900  -24.7977000   -19.7571900 -179.5741000 
   1.820000000    21.9944700 -117.0888000    17.0622000  123.0648000  -105.0837000  111.8164000   -18.9010500  173.9149000 
   1.855000000    21.3712400   -6.2222500    17.0393300   46.0785600   -98.8500900   15.5135100   -18.5604600  175.8874000 
   1.890000000    20.4690900   97.1339600    17.0254400  -31.2190400  -115.7368000   42.4329500   -19.6153300  175.5598000 
   1.925000000    20.5618800 -161.4989000    16.9419100 -108.3349000  -100.0177000  -76.8684200   -20.4451500  163.8443000 
   1.960000000    21.0998600  -52.4070200    16.8998800  174.5146000  -101.5865000   51.7544300   -19.2803500  154.2250000 
   1.995000000    20.6767200   60.2860700    16.9762600   97.5750000  -102.2491000 -128.7412000   -18.3787100  156.3627000 
   2.030000000    19.2890700  164.7780000    16.8699800   20.5124700   -96.5685200   -6.9694770   -19.0411000  159.1365000 
   2.065000000    19.4655300  -98.8083100    16.8632800  -56.9283300  -110.8152000  117.6612000   -20.1600200  151.4414000 
   2.100000000    20.9481100    7.8182860    16.9136400 -134.2572000  -106.5676000   66.2802400   -19.5619400  140.3194000 
   2.135000000    21.2276100  123.1872000    16.8950600  148.6161000  -107.2028000  158.2570000   -18.6346600  140.1917000 
   2.170000000    20.0262400 -125.1921000    16.8681300   71.4208100  -100.2291000   97.0739800   -19.1528700  142.5635000 
   2.205000000    19.1257800  -25.9062200    16.8568400   -5.6683380  -109.3039000   81.0994800   -20.2016000  135.0652000 
   2.240000000    20.2664400   74.9671900    16.7875500  -82.8570300  -102.3829000   36.7313500   -19.4501500  124.4830000 
   2.275000000    21.3790600 -171.9918000    16.8495300 -159.8744000  -103.5109000  171.6273000   -18.4059200  125.2754000 
   2.310000000    20.7679700  -58.2099000    16.8363100  123.1374000   -94.6685300  170.7746000   -18.9864800  128.2225000 
   2.345000000    19.4574100   43.0198300    16.8187800   45.9014600  -100.0739000    4.8491610   -20.1539600  119.0909000 
   2.380000000    20.4695400  138.2897000    16.8031900  -31.1031400  -103.2464000   24.4128200   -19.0693900  106.4380000 
   2.415000000    22.2746100 -111.9707000    16.8571100 -109.1167000   -97.9897600  -25.3093700   -17.6401300  108.8229000 
   2.450000000    22.3550600    4.9344650    16.7733600  173.8414000  -104.0557000 -110.2180000   -18.1988800  116.7799000 
   2.485000000    20.9617000  112.8570000    16.8373900   96.2278200  -109.2125000 -100.7339000   -20.5698800  110.8487000 
   2.520000000    21.9473700 -149.5578000    16.7563400   14.3273900  -100.0967000 -167.9738000   -19.1587500   98.6681100 
   2.555000000    21.9129800  -45.2176000    16.7623300  -63.1406400  -101.5919000 -118.6848000   -19.3059500   94.2883500 
   2.590000000    21.9982900   58.9830400    16.6908300 -140.3931000  -108.0371000 -163.7657000   -19.2297300   89.8932300 
   2.625000000    22.3973800  163.1754000    16.7691500  142.1941000   -96.4686100  177.9793000   -19.1218100   85.8326600 
   2.660000000    22.6993200  -90.9679000    16.6582900   65.2835200  -105.5991000  -44.9433300   -19.1531900   83.1437100 
   2.695000000    22.9108300   14.4101700    16.6673100  -11.9581100   -99.3302100   -7.5153200   -19.2863000   79.6702100 
   2.730000000    22.9979300  119.1893000    16.5542500  -88.8711600  -106.1686000  141.5369000   -19.4557200   74.9240300 
   2.765000000    23.2279200 -136.0480000    16.4982300 -165.6829000  -101.8767000  -90.8221400   -19.4468300   70.1069900 
   2.800000000    23.5080200  -31.3615800    16.5741500  116.8132000  -102.0271000   78.4788100   -19.2765700   65.4450200 
   2.835000000    23.7059100   73.4190400    16.6109100   39.3929300  -110.3101000  102.9336000   -19.1179700   62.0970600 
   2.870000000    23.7558600  177.3257000    16.6792000  -38.4085700   -99.3881100  -50.7809000   -19.0521900   58.1808200 
   2.905000000    23.5850200  -79.0752800    16.6188000 -115.4557000   -96.1418300  -99.3256700   -19.0906800   54.2676400 
   2.940000000    23.6623400   24.7492800    16.6693800  167.0052000  -108.4189000 -139.1284000   -18.9954800   49.9730600 
   2.975000000    23.8500600  129.4658000    16.6589600   89.9186900   -95.0560700  -57.2703600   -18.9300400   46.0769000 
   3.010000000    24.1390000 -125.9784000    16.6712500   12.3529800  -101.9846000  141.0667000   -18.8112200   42.8626400 
   3.045000000    24.2804400  -21.0676500    16.6687500  -64.9838400  -105.9725000  167.6416000   -18.8546800   39.1996900 
   3.080000000    24.3299500   83.7281400    16.7017500 -142.1310000  -101.6774000 -115.8756000   -18.8657400   35.2948800 
   3.115000000    24.3221300 -172.3186000    16.6603900  140.5347000   -99.9099100  -37.5264800   -18.7872700   30.7796100 
   3.150000000    24.3630000  -67.9790600    16.6424300   63.4518100  -106.3263000  116.9093000   -18.6893500   27.2988500 
   3.185000000    24.5435000   36.3541100    16.7151300  -13.8116800  -110.7869000  -40.8678300   -18.5493500   23.9090700 
   3.220000000    24.4887000  141.3537000    16.6638600  -90.9126700  -114.1294000   62.3233000   -18.5366600   20.5139200 
   3.255000000    24.4037200 -114.6866000    16.6757600 -168.3060000  -109.7242000  -64.9473600   -18.4990400   17.0349300 
   3.290000000    24.3295800  -11.4134300    16.6317400  114.3899000  -107.1839000  151.6852000   -18.4325800   13.1249200 
   3.325000000    24.4193500   92.5160500    16.6677100   37.3567200  -102.2294000  -90.1384100   -18.3334200   10.0041500 
   3.360000000    24.4636000 -162.9927000    16.6251000  -40.1004300  -114.8359000 -105.0367000   -18.2749400    6.6987550 
   3.395000000    24.4049600  -58.1354600    16.6192100 -117.3152000  -100.9226000  -68.1076000   -18.2927000    3.1258530 
   3.430000000    24.2504500   46.0351200    16.6294100  165.1364000   -99.1474100  117.2192000   -18.2105900   -0.6542868 
   3.465000000    24.1977500  149.8283000    16.6961100   87.9267300   -97.5052600   49.0876600   -18.0976600   -4.2562910 
   3.500000000    24.0770000 -106.1599000    16.6286100   10.6358900  -107.1014000  104.3875000   -18.0026400   -7.0171420 
   3.535000000    24.0137500   -1.7828460    16.5767800  -66.7069300  -101.3676000  -78.0755500   -18.0080600   -9.9046620 
   3.570000000    23.8971600  102.9857000    16.5815700 -143.8953000  -110.8146000  178.9392000   -18.1113800  -13.2728100 
   3.605000000    23.6844700 -152.5341000    16.5801500  138.7984000  -102.2900000  173.3974000   -18.0899500  -17.0569600 
   3.640000000    23.5673600  -48.4248000    16.6357800   61.7180200  -105.0176000  127.2074000   -18.0193200  -20.6326200 
   3.675000000    23.5131500   55.6695800    16.6507500  -15.6568900   -97.5169200 -144.7004000   -17.9657300  -23.3043700 
   3.710000000    23.4324100  160.6190000    16.6181100  -93.1256800  -112.1169000   75.2164900   -18.0309200  -26.2245200 
   3.745000000    23.2814000  -93.6566800    16.6303600 -170.2525000  -102.0669000  -28.6689100   -18.1912100  -29.7012400 
   3.780000000    23.0018800   11.5717700    16.6060800  112.2755000  -101.6760000  -10.0548200   -18.2230900  -33.8915400 
   3.815000000    22.8142300  116.3901000    16.6715700   35.1129400  -101.5134000 -134.9965000   -18.1376300  -37.8373500 
   3.850000000    22.6684900 -138.8508000    16.6581600  -42.1601400  -104.7442000   97.1705800   -18.0501600  -40.8062200 
   3.885000000    22.5563500  -33.3873100    16.6393400 -119.2911000  -110.3363000   21.0572700   -18.0902900  -43.6570400 
   3.920000000    22.3978400   72.7190000    16.6549200  163.4574000   -96.9543500  -16.5355700   -18.2173100  -47.0195900 
   3.955000000    22.1634800  178.6838000    16.6597100   86.2417200  -103.0786000  104.0025000   -18.2498000  -51.3506100 
   3.990000000    21.9832100  -75.7065100    16.6427500    8.9557700  -105.5460000 -150.0368000   -18.1908100  -55.5038500 
   4.025000000    21.9071400   30.3311400    16.6318900  -68.2173900  -109.8124000   34.1277500   -18.0916700  -58.8075000 
   4.060000000    21.8353700  137.2837000    16.6112500 -145.3207000  -100.5600000 -152.1767000   -18.0635600  -61.7843400 
   4.095000000    21.6993700 -115.4481000    16.6292700  137.4235000  -114.0151000  115.0045000   -18.1014100  -64.9426200 
   4.130000000    21.4895600   -8.3997760    16.6159600   60.1566200  -106.3590000   77.5342200   -18.0947500  -68.4366500 
   4.165000000    21.3473400   97.9495700    16.6190600  -17.0582500  -110.1760000  -53.4108400   -18.0917500  -71.9514100 
   4.200000000    21.3290400 -155.8813000    16.6035400  -94.3829700   -98.4084500 -129.4242000   -18.1100900  -74.9760200 
   4.235000000    21.3977500  -49.4316600    16.5927700 -171.7687000  -102.6505000  151.8422000   -18.1634100  -78.3074200 
   4.270000000    21.4680000   57.5801300    16.5986600  110.9159000  -100.3418000 -138.5474000   -18.2192600  -82.0535400 
   4.305000000    21.5820200  164.5811000    16.6545300   33.5484300  -102.5839000  -41.1611500   -18.2161900  -86.0167300 
   4.340000000    21.6425700  -88.9964500    16.6473900  -43.8725700  -104.2536000 -137.9248000   -18.1848200  -89.6987000 
   4.375000000    21.7971700   17.0721200    16.6196100 -121.0660000   -95.2118000 -121.1099000   -18.1796300  -92.7724200 
   4.410000000    22.0334100  123.4781000    16.6049100  161.7574000  -103.5718000   61.7484400   -18.2119600  -95.9688700 
   4.445000000    22.2248300 -129.7444000    16.6043200   84.7831600  -101.4706000   65.4998300   -18.2466400  -99.8184000 
   4.480000000    22.2700100  -23.8934700    16.6088800    7.3532030  -103.5630000   50.1593100   -18.2187600 -103.6145000 
   4.515000000    22.2188400   81.6333100    16.5461300  -69.6962800  -111.5782000   51.3398800   -18.1610100 -107.0806000 
   4.550000000    22.3513400 -172.8595000    16.5561000 -146.9136000  -112.0223000 -149.5386000   -18.1135200 -110.0571000 
   4.585000000    22.7005400  -66.6676500    16.6299200  135.9727000  -107.8247000 -144.3842000   -18.1359100 -112.9617000 
   4.620000000    22.9385700   39.4819500    16.6255100   58.7650000  -102.5332000  -44.2899600   -18.2121800 -116.1523000 
   4.655000000    23.1240700  145.3573000    16.5998700  -18.4426700   -98.1217700   54.3966200   -18.3037900 -119.5218000 
   4.690000000    23.3362800 -109.5639000    16.6072200  -95.8647200  -101.0743000  113.1046000   -18.3635100 -123.1908000 
   4.725000000    23.5572500   -4.3862960    16.5779300 -173.0265000  -108.4308000    0.0291989   -18.3815300 -127.0083000 
   4.760000000    23.8944900  100.8527000    16.6545400  109.5924000  -101.7958000   69.0858000   -18.3297500 -130.6151000 
   4.795000000    23.9876500 -154.1417000    16.5582700   32.1180700  -111.0787000   41.2674200   -18.3170000 -133.5313000 
   4.830000000    24.2381000  -49.0393200    16.6150400  -44.8569000  -108.0739000   27.0867200   -18.3876600 -136.1904000 
   4.865000000    24.4074100   55.6168900    16.6173900 -122.1338000  -104.8309000   75.7077600   -18.5917600 -139.3303000 
   4.900000000    24.4717800  160.2278000    16.5247600  160.5769000  -103.4071000   83.1792600   -18.7478400 -143.5060000 
   4.935000000    24.6492600  -94.8225200    16.5166800   83.5116100  -103.8592000 -114.8548000   -18.7355000 -147.9113000 
   4.970000000    24.7939000    9.8048690    16.4914100    6.2631900  -101.6941000  -74.1989700   -18.6402000 -151.2824000 
   5.005000000    24.9215900  114.5758000    16.4960500  -70.8596900  -101.3023000   35.4426300   -18.6148200 -153.8017000 
   5.040000000    25.1244700 -141.0036000    16.5892200 -148.2023000   -97.5851100   28.9467800   -18.7985300 -156.3663000 
   5.075000000    25.2747000  -36.0924300    16.5884400  134.5223000  -100.4272000 -122.4061000   -19.0559300 -160.2539000 
   5.110000000    25.4769900   68.9452700    16.5742300   57.2555200  -103.8823000 -101.4465000   -19.1699300 -165.2072000 
   5.145000000    25.5881000  172.8480000    16.5628900  -20.1490800  -105.1669000  129.0901000   -19.0817100 -169.5338000 
   5.180000000    25.6163200  -83.3876500    16.5599100  -97.2987100  -100.1429000 -124.8445000   -19.0248600 -172.6977000 
   5.215000000    25.6715200   20.1356600    16.5719300 -174.5783000  -105.3952000 -159.5652000   -19.1077300 -175.8201000 
   5.250000000    25.7284600  124.4303000    16.5734900  108.3243000  -101.3463000   96.9181100   -19.2305300 -179.9570000 
   5.285000000    25.7935400 -131.0766000    16.5675300   31.0534700   -98.0096100 -136.8637000   -19.2484800  175.6906000 
   5.320000000    25.7482300  -26.8376800    16.5540000  -46.0917800  -103.1428000  -93.3680600   -19.1360200  172.0462000 
   5.355000000    25.7004200   77.0756200    16.5756000 -123.4980000   -98.9936000   98.0331000   -19.1490800  169.3143000 
   5.390000000    25.7402700 -178.9612000    16.5886700  159.1207000  -112.1737000   22.3555400   -19.3099900  165.9410000 
   5.425000000    25.7310600  -74.3740600    16.5729800   82.0340200   -97.7081100   69.5414700   -19.4415900  161.4175000 
   5.460000000    25.6567800   30.6562000    16.5599700    4.9281600  -101.8608000   26.1908900   -19.3426300  156.8540000 
   5.495000000    25.5580700  135.0435000    16.5881200  -72.2048200  -109.4636000  165.2305000   -19.1989700  153.5680000 
   5.530000000    25.4399100 -121.0048000    16.5905200 -149.4332000  -111.3060000 -111.9727000   -19.2046700  151.0534000 
